Circuit: * C:\Users\Alan\Downloads\etapa_ampli.asc

Warning: Multiple definitions of model "2sc2412k" Type: BJT
Warning: Multiple definitions of model "2sa1037ak" Type: BJT
Warning: Multiple definitions of model "bc817-16" Type: BJT
Warning: Multiple definitions of model "bc848b" Type: BJT
Warning: Multiple definitions of model "bc807-16" Type: BJT
Warning: Multiple definitions of model "bcx17" Type: BJT
Warning: Multiple definitions of model "bc858b" Type: BJT
Warning: Multiple definitions of model "2sd1898" Type: BJT
Warning: Multiple definitions of model "d45h11" Type: BJT
Warning: Multiple definitions of model "bc856b" Type: BJT
Warning: Multiple definitions of model "bc556b" Type: BJT
Warning: Multiple definitions of model "bc846b" Type: BJT
Warning: Multiple definitions of model "bc546b" Type: BJT
Warning: Multiple definitions of model "bc327-40" Type: BJT
Warning: Multiple definitions of model "bc327-25" Type: BJT
Warning: Multiple definitions of model "bc807-40" Type: BJT
Warning: Multiple definitions of model "bc807-25" Type: BJT
Warning: Multiple definitions of model "bc857c" Type: BJT
Warning: Multiple definitions of model "bc857b" Type: BJT
Warning: Multiple definitions of model "bc857a" Type: BJT
Warning: Multiple definitions of model "bc557c" Type: BJT
Warning: Multiple definitions of model "bc557b" Type: BJT
Warning: Multiple definitions of model "bc337-40" Type: BJT
Warning: Multiple definitions of model "bc337-25" Type: BJT
Warning: Multiple definitions of model "bc817-40" Type: BJT
Warning: Multiple definitions of model "bc817-25" Type: BJT
Warning: Multiple definitions of model "bc847c" Type: BJT
Warning: Multiple definitions of model "bc847b" Type: BJT
Warning: Multiple definitions of model "bc847a" Type: BJT
Warning: Multiple definitions of model "bc547c" Type: BJT
Warning: Multiple definitions of model "bc547b" Type: BJT
Warning: Multiple definitions of model "2n3019" Type: BJT
Warning: Multiple definitions of model "bcw68g" Type: BJT
Warning: Multiple definitions of model "bcw68f" Type: BJT
Warning: Multiple definitions of model "bcw60d" Type: BJT
Warning: Multiple definitions of model "bcw60c" Type: BJT
Warning: Multiple definitions of model "bcw60b" Type: BJT
Warning: Multiple definitions of model "bcw60a" Type: BJT
Warning: Multiple definitions of model "2n3055" Type: BJT
Warning: Multiple definitions of model "2n5771" Type: BJT
Warning: Multiple definitions of model "2n5769" Type: BJT
Warning: Multiple definitions of model "2n2369" Type: BJT
Warning: Multiple definitions of model "2n5401" Type: BJT
Warning: Multiple definitions of model "2n5550" Type: BJT
Warning: Multiple definitions of model "2n4403" Type: BJT
Warning: Multiple definitions of model "2n4401" Type: BJT
Warning: Multiple definitions of model "2n2905a" Type: BJT
Warning: Multiple definitions of model "2n2219a" Type: BJT
Warning: Multiple definitions of model "2n5087" Type: BJT
Warning: Multiple definitions of model "2n5210" Type: BJT
Warning: Multiple definitions of model "2n5089" Type: BJT
Warning: Multiple definitions of model "2n3391a" Type: BJT
Warning: Multiple definitions of model "2n4126" Type: BJT
Warning: Multiple definitions of model "2n4124" Type: BJT
Warning: Multiple definitions of model "ztx1048a" Type: BJT
Warning: Multiple definitions of model "ztx849" Type: BJT
Warning: Multiple definitions of model "fzt849" Type: BJT
Warning: Multiple definitions of model "2n3906" Type: BJT
Warning: Multiple definitions of model "2n3904" Type: BJT
Warning: Multiple definitions of model "2n2907" Type: BJT
Warning: Multiple definitions of model "2n2222" Type: BJT
Direct Newton iteration failed to find .op point.  (Use ".option noopiter" to skip.)
Starting Gmin stepping
Gmin = 10
Gmin = 1.07374
Gmin = 0.115292
Gmin = 0.0123794
Gmin = 0.00132923
Gmin = 0.000142725
Gmin = 1.5325e-005
Gmin = 1.6455e-006
Gmin = 1.76685e-007
Gmin = 1.89714e-008
Gmin = 2.03704e-009
Gmin = 2.18725e-010
Gmin = 2.34854e-011
Gmin = 2.52173e-012
Gmin = 2.70769e-013
Gmin = 0
Gmin stepping succeeded in finding the operating point.

Semiconductor Device Operating Points:
                        --- Diodes ---
Name:      d6          d2          d1          d5          d7
Model:   nscw100     1n5817      1n5817      1n5378b     1n5378b
Id:      2.83e-03    3.19e-11    3.68e-05   -6.64e-12    3.20e-07
Vd:      3.02e+00    3.58e-08    2.74e-02   -6.64e+00    6.14e-01
Req:     8.80e+01    1.12e+03    5.18e+02    1.00e+12    8.08e+04
CAP:     2.08e-10    1.90e-10    1.92e-10    3.62e-12    1.59e-11

Name:      d4          d3
Model:   1n4148      1n4148
Id:     -4.75e-11   -3.08e-11
Vd:     -8.63e-04   -5.57e-04
Req:     1.83e+07    1.82e+07
CAP:     4.00e-12    4.00e-12

                        --- Bipolar Transistors ---
Name:       q16         q15         q14         q12         q11
Model:    bc558c      bc558c      bc558c      bc548c      bc548c
Ib:      -3.39e-06   -6.16e-06   -6.16e-06    4.43e-06    4.43e-06
Ic:      -2.37e-03   -2.49e-03   -2.49e-03    2.49e-03    2.50e-03
Vbe:     -7.23e-01   -7.38e-01   -7.38e-01    6.53e-01    6.53e-01
Vbc:      2.21e+01    0.00e+00    3.67e-02   -2.93e+01   -2.94e+01
Vce:     -2.28e+01   -7.38e-01   -7.75e-01    3.00e+01    3.00e+01
BetaDC:   6.99e+02    4.03e+02    4.04e+02    5.63e+02    5.63e+02
Gm:       9.06e-02    9.42e-02    9.43e-02    9.59e-02    9.61e-02
Rpi:      7.68e+03    4.22e+03    4.22e+03    5.88e+03    5.87e+03
Rx:       0.00e+00    0.00e+00    0.00e+00    2.65e+01    2.65e+01
Ro:       2.22e+04    1.23e+04    1.23e+04    4.76e+04    4.75e+04
Cbe:      1.08e-10    1.11e-10    1.11e-10    1.03e-10    1.03e-10
Cbc:      2.75e-12    9.83e-12    9.59e-12    1.24e-12    1.24e-12
Cjs:      0.00e+00    0.00e+00    0.00e+00    0.00e+00    0.00e+00
BetaAC:   6.96e+02    3.97e+02    3.98e+02    5.64e+02    5.65e+02
Cbx:      0.00e+00    0.00e+00    0.00e+00    0.00e+00    0.00e+00
Ft:       1.30e+08    1.24e+08    1.24e+08    1.47e+08    1.47e+08

Name:       q7          q9          q6          q8          q5
Model:    bc548c      tip42c      tip42c       bd136       bd136
Ib:       4.08e-06    1.53e-11    1.53e-11    4.75e-11    1.63e-11
Ic:       1.83e-03   -1.53e-11   -1.53e-11   -3.12e-11   -1.56e-11
Vbe:      6.50e-01    9.87e-11   -1.46e-09    1.61e+01    5.35e-01
Vbc:     -5.37e+00    1.50e+01    1.50e+01    3.11e+01    1.55e+01
Vce:      6.02e+00   -1.50e+01   -1.50e+01   -1.50e+01   -1.50e+01
BetaDC:   4.49e+02   -1.00e+00   -1.00e+00   -6.57e-01   -9.59e-01
Gm:       7.06e-02    2.94e-12    2.94e-12    0.00e+00    4.74e-22
Rpi:      6.39e+03    4.25e+10    4.25e+10    1.00e+12    1.00e+12
Rx:       2.65e+01    1.00e-01    1.00e-01    0.00e+00    0.00e+00
Ro:       5.17e+04    1.51e+15    1.51e+15    0.00e+00    9.07e+24
Cbe:      8.58e-11    3.90e-10    3.90e-10    3.61e-11    9.48e-11
Cbc:      2.10e-12    1.21e-10    1.21e-10    1.37e-11    1.80e-11
Cjs:      0.00e+00    0.00e+00    0.00e+00    0.00e+00    0.00e+00
BetaAC:   4.51e+02    1.25e-01    1.25e-01    0.00e+00    4.74e-10
Cbx:      0.00e+00    0.00e+00    0.00e+00    0.00e+00    0.00e+00
Ft:       1.28e+08    7.27e-03    7.27e-03    3.19e-03    1.41e-03

Name:       q4          q2          q13         q10         q3
Model:    tip41c      tip41c       bd135       bd135       bd135
Ib:      -9.34e-09   -1.00e-08    2.74e-05    1.33e-05    3.20e-07
Ic:       1.01e-08    1.01e-08    5.00e-03    2.37e-03    3.68e-05
Vbe:      3.72e-03    1.00e-06    6.56e-01    6.36e-01    5.31e-01
Vbc:     -1.50e+01   -1.50e+01   -2.62e+01   -2.81e+01   -1.44e+01
Vce:      1.50e+01    1.50e+01    2.69e+01    2.88e+01    1.50e+01
BetaDC:  -1.08e+00   -1.01e+00    1.82e+02    1.78e+02    1.15e+02
Gm:       3.44e-09    3.02e-09    1.93e-01    9.15e-02    1.42e-03
Rpi:      5.28e+06    5.64e+06    9.88e+02    2.05e+03    9.13e+04
Rx:       4.56e+00    4.56e+00    0.00e+00    0.00e+00    0.00e+00
Ro:       1.16e+12    1.32e+12    2.84e+04    6.07e+04    3.53e+06
Cbe:      1.94e-10    1.93e-10    2.04e-10    1.47e-10    8.95e-11
Cbc:      4.35e-11    4.35e-11    5.10e-12    4.98e-12    6.22e-12
Cjs:      0.00e+00    0.00e+00    0.00e+00    0.00e+00    0.00e+00
BetaAC:   1.81e-02    1.70e-02    1.91e+02    1.88e+02    1.30e+02
Cbx:      1.07e-11    1.07e-11    0.00e+00    0.00e+00    0.00e+00
Ft:       1.22e+02    1.14e+02    1.47e+08    9.60e+07    2.37e+06

Name:       q1
Model:     bd135
Ib:      -3.08e-11
Ic:       2.29e-11
Vbe:     -7.80e+00
Vbc:     -2.28e+01
Vce:      1.50e+01
BetaDC:  -7.45e-01
Gm:       0.00e+00
Rpi:      1.00e+12
Rx:       0.00e+00
Ro:       0.00e+00
Cbe:      2.53e-11
Cbc:      5.34e-12
Cjs:      0.00e+00
BetaAC:   0.00e+00
Cbx:      0.00e+00
Ft:       5.19e-03



Date: Wed May 22 18:29:21 2019
Total elapsed time: 0.309 seconds.

tnom = 27
temp = 27
method = trap
totiter = 565
traniter = 0
tranpoints = 0
accept = 0
rejected = 0
matrix size = 75
fillins = 97
solver = Normal
Matrix Compiler1: 11.08 KB object code size
Matrix Compiler2: 8.64 KB object code size  2.0/1.4/[0.8]

